Time [s],Value,Parity Error,Framing Error
0.855961900000000,0x55,,
0.855971980000000,0x55,,
0.855982060000000,0x55,,
0.855992140000000,0x55,,
0.856002220000000,0x55,,
0.856012300000000,0x55,,
0.856022380000000,0x55,,
0.856032460000000,0x55,,
0.856042540000000,0x55,,
0.856052620000000,0x55,,
0.856062700000000,0x55,,
0.856072780000000,0x55,,
0.856082860000000,0x55,,
0.856092940000000,0x55,,
0.856103020000000,0x55,,
0.856113100000000,0x77,,
0.857041120000000,0x00,,
0.857051220000000,0x00,,
0.857061280000000,0x00,,
0.857071360000000,0x00,,
0.857081440000000,0x00,,
0.857091520000000,0x00,,
0.857101600000000,0x00,,
0.857111680000000,0x00,,
0.857121760000000,0xE3,,
0.857131840000000,0x18,,
0.857141920000000,0xC3,,
0.857152000000000,0x18,,
0.857162080000000,0xE3,,
0.857172160000000,0x18,,
0.857182240000000,0xC3,,
0.857192320000000,0x18,,
0.857202400000000,0xC3,,
0.857212480000000,0x18,,
0.857222560000000,0xC3,,
0.857232640000000,0x18,,
0.857242720000000,0xE3,,
0.857252800000000,0x18,,
0.857262880000000,0xE3,,
0.857272960000000,0x18,,
0.857283040000000,0xE3,,
0.857293120000000,0x18,,
0.857303200000000,0xE3,,
0.857313280000000,0x18,,
0.857323360000000,0xE3,,
0.857333440000000,0x18,,
0.857343520000000,0xE3,,
0.857353600000000,0x18,,
0.857363680000000,0xC3,,
0.857373760000000,0x18,,
0.857383840000000,0xE3,,
0.857393920000000,0x18,,
0.857404000000000,0xE3,,
0.857414080000000,0x18,,
0.857424160000000,0xE3,,
0.857434240000000,0x18,,
0.857444320000000,0xE3,,
0.857454400000000,0x18,,
0.857464480000000,0xE3,,
0.857474560000000,0x18,,
0.857484640000000,0xE3,,
0.857494720000000,0x18,,
0.857504800000000,0xE3,,
0.857514880000000,0x18,,
0.857524960000000,0xE3,,
0.857535040000000,0x18,,
0.857545120000000,0xE3,,
0.857555200000000,0x18,,
0.857565280000000,0xE3,,
0.857575360000000,0x18,,
0.857585440000000,0xE3,,
0.857595520000000,0x18,,
0.857605600000000,0xE3,,
0.857615680000000,0x18,,
0.857625760000000,0xE3,,
0.857635840000000,0x18,,
0.857645920000000,0xE3,,
0.857656000000000,0x18,,
0.857666080000000,0xE3,,
0.857676160000000,0x18,,
0.857686240000000,0xE3,,
0.857696320000000,0x18,,
0.857706400000000,0xE3,,
0.857716480000000,0x18,,
0.857726560000000,0xE3,,
0.857736640000000,0x18,,
0.857746720000000,0xE3,,
0.857756800000000,0x18,,
0.857766880000000,0xE3,,
0.857776960000000,0x18,,
0.857787040000000,0xE3,,
0.857797120000000,0x18,,
0.857807200000000,0xE3,,
0.857817280000000,0x18,,
0.857827360000000,0xE3,,
0.857837440000000,0x18,,
0.857847520000000,0xE3,,
0.857857600000000,0x18,,
0.857867680000000,0xE3,,
0.857877760000000,0x18,,
0.857887840000000,0xE3,,
0.857897920000000,0x18,,
0.857908000000000,0xE3,,
0.857918080000000,0x18,,
0.857928160000000,0xE3,,
0.857938240000000,0x18,,
0.857948320000000,0xE3,,
0.857958400000000,0x18,,
0.857968480000000,0xE3,,
0.857978560000000,0x18,,
0.857988640000000,0xE3,,
0.857998720000000,0x18,,
0.858010040000000,0xE3,,
0.858020120000000,0x18,,
0.858030200000000,0xE3,,
0.858040280000000,0x18,,
0.858050360000000,0xE3,,
0.858060440000000,0x18,,
0.858070520000000,0xE3,,
0.858080600000000,0x18,,
0.858090680000000,0xE3,,
0.858100760000000,0x18,,
0.858110840000000,0xE3,,
0.858120920000000,0x18,,
0.858131000000000,0xE3,,
0.858141080000000,0x18,,
0.858151160000000,0xE3,,
0.858161240000000,0x18,,
0.858171320000000,0xE3,,
0.858181400000000,0x18,,
0.858191480000000,0xE3,,
0.858201560000000,0x18,,
0.858211640000000,0xE3,,
0.858221720000000,0x18,,
0.858231800000000,0xE3,,
0.858241880000000,0x18,,
0.858251960000000,0xE3,,
0.858262040000000,0x18,,
0.858272120000000,0xE3,,
0.858282200000000,0x18,,
0.858292260000000,0xE3,,
0.858302360000000,0x18,,
0.858312440000000,0xE3,,
0.858322500000000,0x18,,
0.858332580000000,0xE3,,
0.858342660000000,0x18,,
0.858352740000000,0xE3,,
0.858362820000000,0x18,,
0.858372900000000,0xE3,,
0.858382980000000,0x18,,
0.858393060000000,0xE3,,
0.858403140000000,0x18,,
0.858413220000000,0xE3,,
0.858423300000000,0x18,,
0.858433380000000,0xE3,,
0.858443460000000,0x18,,
0.858453540000000,0xE3,,
0.858463620000000,0x18,,
0.858473700000000,0xE3,,
0.858483780000000,0x18,,
0.858493860000000,0xE3,,
0.858503940000000,0x18,,
0.858514020000000,0xE3,,
0.858524100000000,0x18,,
0.858534180000000,0xE3,,
0.858544260000000,0x18,,
0.858554340000000,0xE3,,
0.858564420000000,0x18,,
0.858574500000000,0xE3,,
0.858584580000000,0x18,,
0.858594660000000,0xE3,,
0.858604740000000,0x18,,
0.858614820000000,0xE3,,
0.858624900000000,0x18,,
0.858634980000000,0xE3,,
0.858645060000000,0x18,,
0.858655140000000,0xE3,,
0.858665220000000,0x18,,
0.858675300000000,0xE3,,
0.858685380000000,0x18,,
0.858695460000000,0xE3,,
0.858705540000000,0x18,,
0.858715620000000,0xE3,,
0.858725700000000,0x18,,
0.858735780000000,0xE3,,
0.858745860000000,0x18,,
0.858755940000000,0xE3,,
0.858766020000000,0x18,,
0.858776100000000,0xE3,,
0.858786180000000,0x18,,
0.858796260000000,0xE3,,
0.858806340000000,0x18,,
0.858816420000000,0xE3,,
0.858826500000000,0x18,,
0.858836580000000,0xE3,,
0.858846660000000,0x18,,
0.858856740000000,0xE3,,
0.858866820000000,0x18,,
0.858876900000000,0xE3,,
0.858886980000000,0x18,,
0.858897060000000,0xE3,,
0.858907140000000,0x18,,
0.858917220000000,0xE3,,
0.858927300000000,0x18,,
0.858937380000000,0xE3,,
0.858947460000000,0x18,,
0.858957540000000,0xE3,,
0.858967620000000,0x18,,
0.858977700000000,0xE3,,
0.858987780000000,0x18,,
0.858997860000000,0xE3,,
0.859007940000000,0x18,,
0.859018020000000,0xE3,,
0.859028100000000,0x18,,
0.859038180000000,0xE3,,
0.859048260000000,0x18,,
0.859058340000000,0xE3,,
0.859068420000000,0x18,,
0.859078500000000,0xE3,,
0.859088580000000,0x18,,
0.859098660000000,0xE3,,
0.859108740000000,0x18,,
0.859118820000000,0xE3,,
0.859128900000000,0x18,,
0.859138980000000,0xE3,,
0.859149060000000,0x18,,
0.859159140000000,0xE3,,
0.859169220000000,0x18,,
0.859179300000000,0xE3,,
0.859189380000000,0x18,,
0.859199460000000,0xE3,,
0.859209540000000,0x18,,
0.859219620000000,0xE3,,
0.859229700000000,0x18,,
0.859239780000000,0xE3,,
0.859249860000000,0x18,,
0.859259940000000,0xE3,,
0.859270020000000,0x18,,
0.859280100000000,0xE3,,
0.859290180000000,0x18,,
0.859300260000000,0xE3,,
0.859310340000000,0x18,,
0.859320420000000,0xE3,,
0.859330500000000,0x18,,
0.859340580000000,0xE3,,
0.859350660000000,0x18,,
0.859360740000000,0xE3,,
0.859370820000000,0x18,,
0.859380900000000,0xE3,,
0.859390980000000,0x18,,
0.859401060000000,0xE3,,
0.859411140000000,0x18,,
0.859421220000000,0xE3,,
0.859431300000000,0x18,,
0.859441380000000,0xE3,,
0.859451460000000,0x18,,
0.859461540000000,0xE3,,
0.859471620000000,0x18,,
0.859481700000000,0xE3,,
0.859491780000000,0x18,,
0.859501860000000,0xE3,,
0.859511940000000,0x18,,
0.859522020000000,0xE3,,
0.859532100000000,0x18,,
0.859542180000000,0xE3,,
0.859552260000000,0x18,,
0.859562340000000,0xE3,,
0.859572420000000,0x18,,
0.859582500000000,0xE3,,
0.859592580000000,0x18,,
0.859602660000000,0xE3,,
0.859612740000000,0x18,,
0.859622800000000,0xE3,,
0.859632880000000,0x18,,
0.859642960000000,0xE3,,
0.859653040000000,0x18,,
0.859663120000000,0xE3,,
0.859673200000000,0x18,,
0.859683280000000,0xE3,,
0.859693360000000,0x18,,
0.859703440000000,0xE3,,
0.859713520000000,0x18,,
0.859723600000000,0xE3,,
0.859733680000000,0x18,,
0.859743760000000,0xE3,,
0.859753840000000,0x18,,
0.859763920000000,0xE3,,
0.859774000000000,0x18,,
0.859784080000000,0xE3,,
0.859794160000000,0x18,,
0.859804240000000,0xE3,,
0.859814320000000,0x18,,
0.859824400000000,0xE3,,
0.859834480000000,0x18,,
0.859844560000000,0xE3,,
0.859854640000000,0x18,,
0.859864720000000,0xE3,,
0.859874800000000,0x18,,
0.859884880000000,0xE3,,
0.859894960000000,0x18,,
0.859905040000000,0xE3,,
0.859915120000000,0x18,,
0.859925200000000,0xE3,,
0.859935280000000,0x18,,
0.859945360000000,0xE3,,
0.859955440000000,0x18,,
0.859965520000000,0xE3,,
0.859975600000000,0x18,,
0.859985680000000,0xE3,,
0.859995760000000,0x18,,
0.860005840000000,0xE3,,
0.860015920000000,0x18,,
0.860026000000000,0xE3,,
0.860036080000000,0x18,,
0.860046160000000,0xE3,,
0.860056240000000,0x18,,
0.860066320000000,0xE3,,
0.860076400000000,0x18,,
0.860086480000000,0xE3,,
0.860096560000000,0x18,,
0.860106640000000,0xE3,,
0.860116720000000,0x18,,
0.860126800000000,0xE3,,
0.860136880000000,0x18,,
0.860146960000000,0xE3,,
0.860157040000000,0x18,,
0.860167120000000,0xE3,,
0.860177200000000,0x18,,
0.860187280000000,0xE3,,
0.860197360000000,0x18,,
0.860207440000000,0xE3,,
0.860217520000000,0x18,,
0.860227600000000,0xE3,,
0.860237680000000,0x18,,
0.860247760000000,0xE3,,
0.860257840000000,0x18,,
0.860267920000000,0xE3,,
0.860278000000000,0x18,,
0.860288080000000,0xE3,,
0.860298160000000,0x18,,
0.860308240000000,0xE3,,
0.860318320000000,0x18,,
0.860328400000000,0xE3,,
0.860338480000000,0x18,,
0.860348560000000,0xE3,,
0.860358640000000,0x18,,
0.860368720000000,0xE3,,
0.860378800000000,0x18,,
0.860388880000000,0xE3,,
0.860398960000000,0x18,,
0.860409040000000,0xE3,,
0.860419120000000,0x18,,
0.860429200000000,0xE3,,
0.860439280000000,0x18,,
0.860449360000000,0xE3,,
0.860459440000000,0x18,,
0.860469520000000,0xE3,,
0.860479600000000,0x18,,
0.860489680000000,0xE3,,
0.860499760000000,0x18,,
0.860509840000000,0xE3,,
0.860519920000000,0x18,,
0.860530000000000,0xE3,,
0.860540080000000,0x18,,
0.860550160000000,0xE3,,
0.860560240000000,0x18,,
0.860570320000000,0xE3,,
0.860580400000000,0x18,,
0.860590480000000,0xE3,,
0.860600560000000,0x18,,
0.860610640000000,0xE3,,
0.860620720000000,0x18,,
0.860630800000000,0xE3,,
0.860640880000000,0x18,,
0.860650960000000,0xE3,,
0.860661040000000,0x18,,
0.860671120000000,0xE3,,
0.860681200000000,0x18,,
0.860691280000000,0xE3,,
0.860701360000000,0x18,,
0.860711440000000,0xE3,,
0.860721520000000,0x18,,
0.860731600000000,0xE3,,
0.860741680000000,0x18,,
0.860751760000000,0xE3,,
0.860761840000000,0x18,,
0.860771920000000,0xE3,,
0.860782000000000,0x18,,
0.860792080000000,0xE3,,
0.860802160000000,0x18,,
0.860812240000000,0xE3,,
0.860822320000000,0x18,,
0.860832400000000,0xE3,,
0.860842480000000,0x18,,
0.860852560000000,0xE3,,
0.860862640000000,0x18,,
0.860872720000000,0xE3,,
0.860882800000000,0x18,,
0.860892880000000,0xE3,,
0.860902960000000,0x18,,
0.860913040000000,0xE3,,
0.860923120000000,0x18,,
0.860933200000000,0xE3,,
0.860943280000000,0x18,,
0.860953360000000,0xE3,,
0.860963440000000,0x18,,
0.860973520000000,0xE3,,
0.860983600000000,0x18,,
0.860993680000000,0xE3,,
0.861003760000000,0x18,,
0.861013840000000,0xE3,,
0.861023900000000,0x18,,
0.861033980000000,0xE3,,
0.861044060000000,0x18,,
0.861054140000000,0xE3,,
0.861064220000000,0x18,,
0.861074300000000,0xE3,,
0.861084380000000,0x18,,
0.861094460000000,0xE3,,
0.861104540000000,0x18,,
0.861114620000000,0xE3,,
0.861124700000000,0x18,,
0.861134780000000,0xE3,,
0.861144860000000,0x18,,
0.861154940000000,0xE3,,
0.861165020000000,0x18,,
0.861175100000000,0xE3,,
0.861185180000000,0x18,,
0.861195260000000,0xE3,,
0.861205340000000,0x18,,
0.861215420000000,0xE3,,
0.861225500000000,0x18,,
0.861235580000000,0xE3,,
0.861245660000000,0x18,,
0.861255740000000,0xE3,,
0.861265820000000,0x18,,
0.861275900000000,0xE3,,
0.861285980000000,0x18,,
0.861296060000000,0xE3,,
0.861306140000000,0x18,,
0.861316220000000,0xE3,,
0.861326300000000,0x18,,
0.861336380000000,0xE3,,
0.861346460000000,0x18,,
0.861356540000000,0xE3,,
0.861366620000000,0x18,,
0.861376700000000,0xE3,,
0.861386780000000,0x18,,
0.861396860000000,0xE3,,
0.861406940000000,0x18,,
0.861417020000000,0xE3,,
0.861427100000000,0x18,,
0.861437180000000,0xE3,,
0.861447260000000,0x18,,
0.861457340000000,0xE3,,
0.861467420000000,0x18,,
0.861477500000000,0xE3,,
0.861487580000000,0x18,,
0.861497660000000,0xE3,,
0.861507740000000,0x18,,
0.861517820000000,0xE3,,
0.861527900000000,0x18,,
0.861537980000000,0xE3,,
0.861548060000000,0x18,,
0.861558140000000,0xE3,,
0.861568220000000,0x18,,
0.861578300000000,0xE3,,
0.861588380000000,0x18,,
0.861598460000000,0xE3,,
0.861608540000000,0x18,,
0.861618620000000,0xE3,,
0.861628700000000,0x18,,
0.861638780000000,0xE3,,
0.861648860000000,0x18,,
0.861658940000000,0xE3,,
0.861669020000000,0x18,,
0.861679100000000,0xE3,,
0.861689180000000,0x18,,
0.861699260000000,0xE3,,
0.861709340000000,0x18,,
0.861719420000000,0xE3,,
0.861729500000000,0x18,,
0.861739580000000,0xE3,,
0.861749660000000,0x18,,
0.861759740000000,0xE3,,
0.861769820000000,0x18,,
0.861779900000000,0xE3,,
0.861789980000000,0x18,,
0.861800060000000,0xE3,,
0.861810140000000,0x18,,
0.861820220000000,0xE3,,
0.861830300000000,0x18,,
0.861840380000000,0xE3,,
0.861850460000000,0x18,,
0.861860540000000,0xE3,,
0.861870620000000,0x18,,
0.861880700000000,0xE3,,
0.861890780000000,0x18,,
0.861900860000000,0xE3,,
0.861910940000000,0x18,,
0.861921020000000,0xE3,,
0.861931100000000,0x18,,
0.861941180000000,0xE3,,
0.861951260000000,0x18,,
0.861961340000000,0xE3,,
0.861971420000000,0x18,,
0.861981500000000,0xE3,,
0.861991580000000,0x18,,
0.862001660000000,0xE3,,
0.862011740000000,0x18,,
0.862021820000000,0xE3,,
0.862031900000000,0x18,,
0.862041980000000,0xE3,,
0.862052060000000,0x18,,
0.862062140000000,0xE3,,
0.862072220000000,0x18,,
0.862082300000000,0xE3,,
0.862092380000000,0x18,,
0.862102460000000,0xE3,,
0.862112540000000,0x18,,
0.862122620000000,0xE3,,
0.862132700000000,0x18,,
0.862142780000000,0xC3,,
0.862152860000000,0x18,,
0.862162940000000,0xE3,,
0.862173020000000,0x18,,
0.862183100000000,0xE3,,
0.862193180000000,0x18,,
0.862203260000000,0xC3,,
0.862213340000000,0x18,,
0.862223420000000,0xE3,,
0.862233500000000,0x18,,
0.862243580000000,0xE3,,
0.862253660000000,0x18,,
0.862263740000000,0xE3,,
0.862273820000000,0x18,,
0.862283900000000,0xE3,,
0.862293980000000,0x18,,
0.862304060000000,0xE3,,
0.862314120000000,0x18,,
0.862324200000000,0xE3,,
0.862334280000000,0x18,,
0.862344360000000,0xE3,,
0.862354440000000,0x18,,
0.862364520000000,0xE3,,
0.862374600000000,0x18,,
0.862384680000000,0xE3,,
0.862394760000000,0x18,,
0.862404840000000,0xE3,,
0.862414920000000,0x18,,
0.862425000000000,0xE3,,
0.862435080000000,0x18,,
0.862445160000000,0xC3,,
0.862455240000000,0x18,,
0.862465320000000,0xC3,,
0.862475400000000,0x18,,
0.862485480000000,0xC3,,
0.862495560000000,0x18,,
0.862505640000000,0xC3,,
0.862515720000000,0x18,,
0.862525800000000,0xC3,,
0.862535880000000,0x18,,
0.862545960000000,0xE3,,
0.862556040000000,0x18,,
0.862566120000000,0xE3,,
0.862576200000000,0x18,,
0.862586280000000,0xC3,,
0.862596360000000,0x18,,
0.862606440000000,0xC3,,
0.862616520000000,0x18,,
0.862626600000000,0xC3,,
0.862636680000000,0x18,,
0.862646760000000,0xC3,,
0.862656840000000,0x18,,
0.862666920000000,0xC3,,
0.862677000000000,0x18,,
0.862687080000000,0xC3,,
0.862697160000000,0x18,,
0.862707240000000,0xC3,,
0.862717320000000,0x18,,
0.862727400000000,0xC3,,
0.862737480000000,0x18,,
0.862747560000000,0xC3,,
0.862757640000000,0x18,,
0.862767720000000,0xC3,,
0.862777800000000,0x18,,
0.862787880000000,0xC3,,
0.862797960000000,0x18,,
0.862808040000000,0xC3,,
0.862818120000000,0x18,,
0.862828200000000,0xC3,,
0.862838280000000,0x18,,
0.862848360000000,0xC3,,
0.862858440000000,0x18,,
0.862868520000000,0xC3,,
0.862878600000000,0x18,,
0.862888680000000,0xC3,,
0.862898760000000,0x18,,
0.862908840000000,0xC3,,
0.862918920000000,0x18,,
0.862929000000000,0xC3,,
0.862939080000000,0x18,,
0.862949160000000,0xC3,,
0.862959240000000,0x18,,
0.862969320000000,0xC3,,
0.862979400000000,0x18,,
0.862989480000000,0xC3,,
0.862999560000000,0x18,,
0.863009640000000,0xC3,,
0.863019720000000,0x18,,
0.863029800000000,0xC3,,
0.863039880000000,0x18,,
0.863049960000000,0xC3,,
0.863060040000000,0x18,,
0.863070120000000,0xC3,,
0.863080200000000,0x18,,
0.863090280000000,0xC3,,
0.863100360000000,0x18,,
0.863110440000000,0xC3,,
0.863120520000000,0x18,,
0.863130600000000,0xC3,,
0.863140680000000,0x18,,
0.863150760000000,0xC3,,
0.863160840000000,0x18,,
0.863170920000000,0xC3,,
0.863181000000000,0x18,,
0.863191080000000,0xC3,,
0.863201160000000,0x18,,
0.863211240000000,0xC3,,
0.863221320000000,0x18,,
0.863231400000000,0xC3,,
0.863241480000000,0x18,,
0.863251560000000,0xC3,,
0.863261640000000,0x18,,
0.863271720000000,0xC3,,
0.863281800000000,0x18,,
0.863291880000000,0xC3,,
0.863301960000000,0x18,,
0.863312040000000,0xC3,,
0.863322120000000,0x18,,
0.863332200000000,0xC3,,
0.863342280000000,0x18,,
0.863352360000000,0xC3,,
0.863362440000000,0x18,,
0.863372520000000,0xC3,,
0.863382600000000,0x18,,
0.863392680000000,0xC3,,
0.863402760000000,0x18,,
0.863412840000000,0xC3,,
0.863422920000000,0x18,,
0.863433000000000,0xC3,,
0.863443080000000,0x18,,
0.863453160000000,0xC3,,
0.863463240000000,0x18,,
0.863473320000000,0xC3,,
0.863483400000000,0x18,,
0.865499200000000,0xC3,,
0.865509280000000,0x18,,
0.865519360000000,0x00,,
0.865529440000000,0x00,,
0.865539520000000,0x00,,
0.865549600000000,0x00,,
0.865559680000000,0x00,,
0.865569760000000,0x00,,
0.865579840000000,0xE3,,
0.865589920000000,0x18,,
0.865600000000000,0xC3,,
0.865610080000000,0x18,,
0.865620160000000,0xC3,,
0.865630240000000,0x18,,
0.865640320000000,0xC3,,
0.865650400000000,0x18,,
0.865660480000000,0xC3,,
0.865670560000000,0x18,,
0.865680640000000,0xC3,,
0.865690720000000,0x18,,
0.865700800000000,0xC3,,
0.865710880000000,0x18,,
0.865720960000000,0xE3,,
0.865731040000000,0x18,,
0.865741120000000,0xE3,,
0.865751200000000,0x18,,
0.865761280000000,0xE3,,
0.865771360000000,0x18,,
0.865781440000000,0xE3,,
0.865791520000000,0x18,,
0.865801600000000,0xE3,,
0.865811680000000,0x18,,
0.865821760000000,0xE3,,
0.865831840000000,0x18,,
0.865841920000000,0xE3,,
0.865852000000000,0x18,,
0.865862080000000,0xE3,,
0.865872160000000,0x18,,
0.865882240000000,0xE3,,
0.865892320000000,0x18,,
0.865902400000000,0xE3,,
0.865912480000000,0x18,,
0.865922560000000,0xE3,,
0.865932640000000,0x18,,
0.865942720000000,0xE3,,
0.865952800000000,0x18,,
0.865962880000000,0xE3,,
0.865972960000000,0x18,,
0.865983040000000,0xE3,,
0.865993120000000,0x18,,
0.866003200000000,0xE3,,
0.866013280000000,0x18,,
0.866023360000000,0xE3,,
0.866033440000000,0x18,,
0.866043520000000,0xE3,,
0.866053600000000,0x18,,
0.866063680000000,0xE3,,
0.866073760000000,0x18,,
0.866083840000000,0xE3,,
0.866093920000000,0x18,,
0.866104000000000,0xE3,,
0.866114080000000,0x18,,
0.866124160000000,0xE3,,
0.866134240000000,0x18,,
0.866144320000000,0xE3,,
0.866154400000000,0x18,,
0.866164480000000,0xE3,,
0.866174560000000,0x18,,
0.866184640000000,0xE3,,
0.866194720000000,0x18,,
0.866204800000000,0xE3,,
0.866214880000000,0x18,,
0.866224960000000,0xE3,,
0.866235040000000,0x18,,
0.866245120000000,0xE3,,
0.866255200000000,0x18,,
0.866265260000000,0xE3,,
0.866275340000000,0x18,,
0.866285420000000,0xE3,,
0.866295500000000,0x18,,
0.866305580000000,0xE3,,
0.866315660000000,0x18,,
0.866325740000000,0xE3,,
0.866335820000000,0x18,,
0.866345900000000,0xE3,,
0.866355980000000,0x18,,
0.866366060000000,0xE3,,
0.866376140000000,0x18,,
0.866386220000000,0xE3,,
0.866396300000000,0x18,,
0.866406380000000,0xE3,,
0.866416460000000,0x18,,
0.866426540000000,0xE3,,
0.866436620000000,0x18,,
0.866446700000000,0xE3,,
0.866456780000000,0x18,,
0.866466860000000,0xE3,,
0.866476940000000,0x18,,
0.866487020000000,0xE3,,
0.866497100000000,0x18,,
0.866507180000000,0xE3,,
0.866517260000000,0x18,,
0.866527340000000,0xE3,,
0.866537420000000,0x18,,
0.866547500000000,0xE3,,
0.866557580000000,0x18,,
0.866567660000000,0xE3,,
0.866577740000000,0x18,,
0.866587820000000,0xE3,,
0.866597900000000,0x18,,
0.866607980000000,0xE3,,
0.866618060000000,0x18,,
0.866628140000000,0xE3,,
0.866638220000000,0x18,,
0.866648300000000,0xE3,,
0.866658380000000,0x18,,
0.866668460000000,0xE3,,
0.866678540000000,0x18,,
0.866688620000000,0xE3,,
0.866698700000000,0x18,,
0.866708780000000,0xE3,,
0.866718860000000,0x18,,
0.866728940000000,0xE3,,
0.866739020000000,0x18,,
0.866749100000000,0xE3,,
0.866759180000000,0x18,,
0.866769260000000,0xE3,,
0.866779340000000,0x18,,
0.866789420000000,0xE3,,
0.866799500000000,0x18,,
0.866809580000000,0xE3,,
0.866819660000000,0x18,,
0.866829740000000,0xE3,,
0.866839820000000,0x18,,
0.866849900000000,0xE3,,
0.866859980000000,0x18,,
0.866870060000000,0xE3,,
0.866880140000000,0x18,,
0.866890220000000,0xE3,,
0.866900300000000,0x18,,
0.866910380000000,0xE3,,
0.866920460000000,0x18,,
